"Freq [GHz]","ang_deg(Z(1,1)) [] - ResFreq='280GHz' ResFreq2='285GHz'","mag(Z(1,1)) [] - ResFreq='330GHz' ResFreq2='322.5GHz'","mag(Z(1,1)) [] - ResFreq='320GHz' ResFreq2='322.5GHz'","mag(Z(1,1)) [] - ResFreq='310GHz' ResFreq2='322.5GHz'","mag(Z(1,1)) [] - ResFreq='300GHz' ResFreq2='322.5GHz'","mag(Z(1,1)) [] - ResFreq='290GHz' ResFreq2='322.5GHz'","mag(Z(1,1)) [] - ResFreq='280GHz' ResFreq2='322.5GHz'","mag(Z(1,1)) [] - ResFreq='270GHz' ResFreq2='322.5GHz'","mag(Z(1,1)) [] - ResFreq='330GHz' ResFreq2='300GHz'","mag(Z(1,1)) [] - ResFreq='320GHz' ResFreq2='300GHz'","mag(Z(1,1)) [] - ResFreq='310GHz' ResFreq2='300GHz'","mag(Z(1,1)) [] - ResFreq='300GHz' ResFreq2='300GHz'","mag(Z(1,1)) [] - ResFreq='290GHz' ResFreq2='300GHz'","mag(Z(1,1)) [] - ResFreq='280GHz' ResFreq2='300GHz'","mag(Z(1,1)) [] - ResFreq='270GHz' ResFreq2='300GHz'","mag(Z(1,1)) [] - ResFreq='330GHz' ResFreq2='282.5GHz'","mag(Z(1,1)) [] - ResFreq='320GHz' ResFreq2='282.5GHz'","mag(Z(1,1)) [] - ResFreq='310GHz' ResFreq2='282.5GHz'","mag(Z(1,1)) [] - ResFreq='300GHz' ResFreq2='282.5GHz'","mag(Z(1,1)) [] - ResFreq='290GHz' ResFreq2='282.5GHz'","mag(Z(1,1)) [] - ResFreq='280GHz' ResFreq2='282.5GHz'","mag(Z(1,1)) [] - ResFreq='270GHz' ResFreq2='282.5GHz'","mag(Z(1,1)) [] - ResFreq='290GHz' ResFreq2='285GHz'","mag(Z(1,1)) [] - ResFreq='285GHz' ResFreq2='285GHz'","mag(Z(1,1)) [] - ResFreq='280GHz' ResFreq2='285GHz'","mag(Z(1,1)) [] - ResFreq='275GHz' ResFreq2='285GHz'"
125,1.4026549759978,1.99231576554651,1.36782941845257,0.687488233338243,0.287556541896333,0.848921554322324,1.70909010449825,2.49469899714366,1.99324384550714,1.24319527372607,0.577072313202767,0.287933677607943,0.639299267706277,1.67134493460973,2.34385543370681,1.87796654667649,1.19630978131705,0.663504809515749,0.262672247360475,0.652645043794026,1.67826744043974,2.45739234631494,0.712499656795407,1.12242184410891,1.71782674329552,2.06952690946605
125.625,1.41060723942682,1.89516465415154,1.27403411834946,0.601885597877285,0.262055771412163,0.937286735073291,1.79995783682795,2.58542931600947,1.89519595058947,1.14853712641763,0.49535533282875,0.263350371333653,0.723739673783972,1.76201507237082,2.43336522364294,1.77943872813882,1.10149819806026,0.577831335945765,0.273186585929947,0.73749523219117,1.76949686039523,2.54851660063809,0.798748330634569,1.21166147028644,1.80918314547622,2.16072159020344
126.25,1.41776627131752,1.79856723863433,1.18096305091969,0.519792915308972,0.267840827519014,1.02608932754302,1.89067623154894,2.67599045864025,1.79770925446889,1.05476470614665,0.419777992534829,0.269845411229123,0.809361912686182,1.85254089531016,2.52271276817104,1.68150898058765,1.00763805569028,0.495973768260077,0.312175097059505,0.823471146455261,1.86055943685699,2.63944788919473,0.885793758997892,1.30095313661142,1.90037423370278,2.2517230321043
126.875,1.42424391178684,1.70253216699556,1.08868597196363,0.44291165351761,0.302812355055793,1.11515739160714,1.98123765184031,2.76638598359876,1.70079242024242,0.962002790909898,0.353979386458178,0.305138569359222,0.895741881303684,1.94291335658753,2.61190123217354,1.58419212862036,0.914880924065256,0.419899200887768,0.370511089184647,0.91016638638945,1.95144674995439,2.73019033520687,0.973345135874575,1.39023638932182,1.99139226978258,2.34253183282541
127.5,1.43013204025486,1.60707208028296,0.997300317847614,0.374174887593837,0.358272939052534,1.20437192738983,2.07163703245252,2.85661985330775,1.60445816976428,0.870430372363521,0.30401671429316,0.360628471436701,0.982604933949038,2.03312628962454,2.70093425647196,1.48750898311579,0.82344713465751,0.35305233963069,0.440371640214121,0.997316560959495,2.04215326416993,2.82074847100181,1.06120919878634,1.47946730709985,2.0822321861865,2.43314961222594
128.125,1.43550681586974,1.51220475985869,0.906944260134118,0.318562673295996,0.426091340911553,1.29364881560855,2.16187131410553,2.94669636187101,1.50872446381025,0.780310168056099,0.278172851549885,0.428337518625678,1.06976726792488,2.12317576667726,2.78981587098891,1.39148825711217,0.733665367191579,0.301279542496432,0.516939217169937,1.08474408213864,2.13267567999762,2.91112716076136,1.14925379008955,1.56861375053964,2.17289099631782,2.52357880799629
128.75,1.44043188599102,1.41795470908109,0.817817693607641,0.28353566087959,0.501105698760177,1.38292759695032,2.2519390173607,3.03662007672265,1.41361613475245,0.692038706031314,0.282775591689151,0.503192026262143,1.15710246678905,2.21305961778457,2.87855042507457,1.29616928175752,0.646041332971267,0.272909592539283,0.597501413639809,1.17232646516854,2.22301244839336,3.00133153841108,1.23738640981034,1.65765214331032,2.26336735045147,2.61382251578924
129.375,1.44496084300285,1.32435537076553,0.730217124650918,0.276658442543284,0.580390592000021,1.47216427659236,2.34183991771682,3.12639579121594,1.31916718438755,0.606234404530241,0.316191114258437,0.582304385668742,1.24452162638265,2.30277706550735,2.96714253128152,1.20160593345816,0.561381230171826,0.274913197800762,0.680522436200559,1.25997739792816,2.31316340260175,3.09136695742567,1.32554110896884,1.74656524203574,2.35366119733728,2.70388436312233
130,1.4491391263541,1.23145229424775,0.644595770512378,0.299554444524823,0.662293726241265,1.56132657790632,2.43157479517893,3.21602848593077,1.22542408010337,0.523897575602501,0.370453158905418,0.664036953415385,1.33196111254496,2.39232844445135,3.05559701976104,1.10787243863684,0.481019862618531,0.306380335287272,0.765100324954852,1.34763502498673,2.40312947582044,3.18123895008506,1.4136702059013,1.83534056000971,2.44377352350278,2.79376840917017
130.625,1.45300551013412,1.13930775277952,0.561670852370872,0.346101002172695,0.745849804204823,1.65039073189979,2.52114523930972,3.30552329697704,1.13245058422448,0.446706382907556,0.437670191697749,0.747429710732571,1.41937477018924,2.48171498367648,3.14391890111119,1.01507216597823,0.407242410655078,0.359398568893347,0.850682285079688,1.43525446086376,2.49291248245922,3.27095319427886,1.50173889162969,1.92396923284208,2.53370615041433,2.88347906459242
131.25,1.45659327749681,1.04800763090885,0.482620947458845,0.408067979192109,0.830470554653548,1.73933925606772,2.61055349609656,3.39488548994886,1.04033499801178,0.377549649162095,0.512599821406269,0.831895975515402,1.5067288189847,2.57093863630916,3.23211333599719,0.923351309420515,0.344001983303774,0.42578305344697,0.936915617897904,1.52280286717661,2.58251494708266,3.36051548638024,1.58972162176968,2.01244518878159,2.62346157522482,2.97302102700341
131.875,1.45993115599118,0.957671961186012,0.409451929287092,0.479332713476534,0.915782619254646,1.82815938643374,2.69980234667282,3.48412043847018,0.949201315203802,0.321334879550835,0.59217745670306,0.917062544404586,1.5939984214049,2.6600019449774,3.32018561023424,0.832920828409755,0.297739669347349,0.500064996550758,1.02356721167716,1.61025613207501,2.6719399695034,3.4499317190304,1.67759964527916,2.1007645329044,2.7130428447099,3.06239922875311
132.5,1.46304406855538,0.868471501076382,0.345636295102697,0.556182487651944,1.00154037999142,1.91684195043056,2.78889501054703,3.57323360649321,0.859226899136329,0.285457044697014,0.674637585608076,1.00268342105154,1.68116532117697,2.74890793471045,3.40814111430377,0.744092792091464,0.276736172164435,0.579067191049971,1.11047830759621,1.69759657883231,2.76119111756504,3.5392078629196,1.76535927548373,2.18892508390793,2.80245345472817,3.15161879447249
133.125,1.46595374109416,0.780654624083453,0.296944503021183,0.636470159802843,1.08757723465743,2.00538054330505,2.87783506786214,3.66223053368048,0.770671403278204,0.27756171964731,0.758935542411653,1.08859145506946,1.76821618423878,2.83766002709505,3.49598532648884,0.657342690070143,0.28626410434527,0.660975233184014,1.19753805296942,1.78481135199993,2.85027234133592,3.62834995183871,1.85299065713035,2.27692602144384,2.89169726949255,3.24068500641845
133.75,1.46867919752468,0.694592401393163,0.27129990809538,0.71893575784128,1.17377725589393,2.09377091733115,2.96662639655924,3.75111682333407,0.683925731630463,0.29955651734285,0.844429191506532,1.17467014649736,1.85514141130773,2.92626197102932,3.58372379898053,0.573419935092747,0.323349840609147,0.744724342581443,1.28466745257129,1.87189125971034,2.93918790400623,3.71736407042121,1.94048687193314,2.36476761462984,2.98077845635187,3.32960327609065
134.375,1.47123716582017,0.610856770901341,0.274901325405688,0.802813908627912,1.26005807584715,2.18201052271382,3.05527312130797,3.83989813243897,0.59959788320276,0.345522463004306,0.930708438770324,1.26083658561558,1.94193427360434,3.01471778654297,3.67136214643587,0.49354915170424,0.379770964234783,0.829664597118496,1.37180929522176,1.95882992933294,3.02794232592319,3.80625634410935,2.02784327953863,2.4524510109381,3.06970143281276,3.4183791209236
135,1.47364241313417,0.530360300093408,0.306441153638612,0.887621651314937,1.34636019040423,2.27009815826679,3.14377957179677,3.92858016346961,0.518668319009077,0.40721029381048,1.01750215569854,1.34703077469407,2.02859027416009,3.10303171898358,3.75890603656916,0.419797879944003,0.448089654987761,0.915383344689778,1.4589216362721,2.04562318237391,3.11654033904033,3.89503293096783,2.11505702507731,2.53997807051675,3.15847082329468,3.50701814510975
135.625,1.47590802401695,0.454610523491484,0.358390919179099,0.973043175810583,1.43264006645559,2.35803370263804,3.23215024852062,4.01716865767337,0.442776051376359,0.478401001536567,1.10462562573122,1.43320873734468,2.11510666928584,3.19120820148568,3.84636118243754,0.35570315953085,0.52350752538904,1.00160909054362,1.5459734648663,2.13226856535957,3.2049868496807,3.98370001503863,2.20212666646713,2.627351235071,3.24709142367851,3.595526023804
136.25,1.47804563266521,0.386162645934996,0.423111748240669,1.05886538502059,1.51886557606032,2.44581790539666,3.32038979461428,4.10566938959668,0.374731049906073,0.555304358803972,1.19194976016447,1.51933794888149,2.20148210552274,3.27925182410317,3.93373333614499,0.307043799442762,0.603231734600308,1.08815763059946,1.63294175290985,2.21876499340361,3.29328690798288,4.07226380098733,2.28905188905324,2.71457342329741,3.33556817213723,3.68390849011042
136.875,1.48006561781103,0.329316930554913,0.495468348354603,1.14494057241963,1.60501289663386,2.5334522231332,3.40850297259068,4.19408816266087,0.319288105994869,0.63572543693435,1.27938241333299,1.60539423088877,2.28771634104846,3.3671673083362,4.02102828373911,0.281586843936681,0.685645534668375,1.17490069500902,1.71980940097272,2.305112476326,3.38144568275214,4.16073050983591,2.37583328479229,2.80164794691104,3.42390612506189,3.77217132436957
137.5,1.48197726706596,0.290646208159401,0.572441384339248,1.23116402050726,1.69106435953122,2.62093868977877,3.49649464508249,4.28243080562862,0.283602812397161,0.718376342779112,1.36685666257115,1.69135959406682,2.37381002965713,3.45495948605149,4.10825184111506,0.285277952445337,0.769785169063864,1.26174701595509,1.80656378032787,2.39131190603226,3.46946844071016,4.2491063756133,2.46247217972324,2.88857844278189,3.51211043714423,3.86032034535734
138.125,1.4837889161535,0.277531723108562,0.652286886762381,1.3174600966029,1.77700692700025,2.70827981320001,3.58436975886869,4.37070316982885,0.275138085002568,0.802475150872719,1.45432323421179,1.77722070997788,2.45976455166024,3.54263328200113,4.19540985077369,0.316814504641527,0.855053728542665,1.34863050533162,1.89319567974867,2.47736488989591,3.55736052934366,4.33739764278408,2.5489704979711,2.97536881777605,3.60018634486937,3.94836140307882
138.75,1.48550806738805,0.293131663790552,0.733971770028366,1.40377335399541,1.86283109456863,2.79547849216077,3.67213333161139,4.45891112703002,0.29594244770693,0.88752870859217,1.54174547564826,1.86296780894484,2.54558188036345,3.63019369930451,4.28250817930708,0.368888455365902,0.941067327139322,1.43550264371032,1.97969853249864,2.56327361906809,3.64512736271381,4.42561056433955,2.63533065368108,3.0620232036926,3.68813915282033,4.03630037289932
139.375,1.48714149091607,0.333193246960077,0.81686068834263,1.49006267644383,1.94853008717259,2.88253794920863,3.75979044083931,4.54706056787021,0.340447239017765,0.973214640132311,1.62909593601211,1.9485938724079,2.63126447579605,3.71764580738256,4.36955271550599,0.433974973877314,1.02757056954029,1.52232744437457,2.06606784073005,2.64904076357588,3.7327744097135,4.51375140045475,2.7215554645139,3.1485459202803,3.77597422231295,4.1241431508005
140,1.48869531157174,0.390049978155003,0.900547749846492,1.57629732783601,2.03409926175154,2.96946167611472,3.84734621480282,4.63515740076687,0.400629442899788,1.05931541723359,1.7163539897817,2.03409403238751,2.71681519951735,3.80499473193136,4.45654936900126,0.506924302506882,1.1143884819856,1.60907803828173,2.15230074122109,2.73466938816265,3.8203071843579,4.60182641763069,2.80764808193639,3.23494144476394,3.86369696197105,4.21189564958726
140.625,1.49017508367317,0.457312885088013,0.984764505260212,1.6624542266126,2.11953565734518,3.05625338928492,3.93480582489496,4.72320755124156,0.470341859865387,1.14568020373593,1.80350415260124,2.11946511899535,2.80223724586899,3.89224564659957,4.54350406936558,0.584663690225148,1.20139816428466,1.69573430655838,2.23839567380777,2.8201628843303,3.90773123777197,4.68984188825437,2.89361193470494,3.3212143866484,3.95131281992434,4.29956379590103
141.25,1.49158585566576,0.530900940302814,1.06932796401218,1.74851602680053,2.20483765215072,3.14291699314828,4.02217447938853,4.81121696160544,0.545804216188298,1.23220197392015,1.89053486641183,2.20470531535814,2.88753408616676,3.97940376609555,4.63042276561379,0.665399357043773,1.28851147720055,1.78228120629945,2.32435212544767,2.90552491514144,3.99505215159995,4.77780409051977,2.97945068279418,3.40736946682704,4.03882727736953,4.3871535279196
141.875,1.49293222618262,0.608404075896231,1.1541101394418,1.83446974204755,2.29000469920899,3.22945654996997,4.10945741828361,4.89919159095912,0.624816998326704,1.31880332234922,1.97743760898787,2.28981389154141,2.97270942315219,4.0664743404993,4.71731142604967,0.748060756073745,1.37566412284528,1.86870756524974,2.41017043068241,2.99075937014833,4.08227553261167,4.86571930866206,3.06516817965629,3.4934115002201,4.126245843281,4.47467079364374
142.5,1.49421839282121,0.688398850077944,1.23901956545835,1.92030574256374,2.37503712062455,3.31587625487145,4.19665990909613,4.98713741546834,0.706086470543677,1.40542738922226,2.06420623170392,2.37479099730945,3.05776715363848,4.15346265059372,4.80417603841539,0.831985978577026,1.46280855299958,1.95500519987689,2.49585161464265,3.07587032841682,4.16940700832,4.95359383346453,3.15076844117031,3.57934538132381,4.21357405009508,4.56212154968692
143.125,1.49544819471532,0.770020317166728,1.32398970526628,2.00601701285534,2.45993594587005,3.40218041509584,4.28378724344663,5.07506042888216,0.788826126233543,1.492031893554,2.15083646047861,2.459637499215,3.14271133774598,4.24037400406183,4.89102261030661,0.916750474870639,1.54990924055731,2.04116826051139,2.58139726848698,3.16086202806498,4.25645222345591,5.04143396300434,3.23625561999929,3.66517607217115,4.30081745022183,4.64951176049828
143.75,1.49662514980293,0.852723761513428,1.40897146254028,2.09159859489637,2.54470278365083,3.48837343275408,4.37084473433247,5.16296664326585,0.872539524507084,1.57858511038843,2.23732551512046,2.54435485144868,3.22754617347071,4.32721373242245,4.9778571698216,1.0020725722601,1.63693945109693,2.1271927385434,2.66680944981348,3.24573884107818,4.34341683717366,5.1292460036081,3.32163398434517,3.75090859230093,4.38798161326299,4.73684739795989
144.375,1.49775248754433,0.936153870388668,1.493928211436,2.17704716517716,2.62933971957442,3.57445979044012,4.4578377139856,5.25086208992447,0.956901937941132,1.66506309688114,2.32367181576053,2.62894499265573,3.31227597559529,4.41398718859784,5.06468576641818,1.08775975792625,1.7238789912022,2.21307609101994,2.7520906024764,3.33050525242332,4.43030652087982,5.21703627099275,3.40690790030096,3.83654801040637,4.47507212383458,4.82413444130858
145,1.49883317772479,1.02007139444895,1.57883241763061,2.26236070976413,2.71384923384666,3.6604440392228,4.54477153223412,5.33875282049713,1.04169411299482,1.75144774032406,2.40987475414529,2.71341026291185,3.39690515815585,4.50069974502451,5.15151447195544,1.17367706269673,1.81071260756367,2.29881695146674,2.83724349161149,3.41516584268584,4.51712695659724,5.30481109157104,3.49208181716147,3.92209943739489,4.56209457990923,4.91137887734046
145.625,1.49986995587703,1.10431070963129,1.66366329061564,2.34753827204217,2.79823413464499,3.74633078861616,4.63165155529875,5.42664490820447,1.12676390066542,1.83772535915772,2.49593451379715,2.79775333648485,3.48143821983683,4.58735679223223,5.23834938190151,1.25972780556469,1.89742882883847,2.38441490484305,2.9222711506768,3.499725273609,4.60388383578947,5.3925768039041,3.57716025517985,4.00756802063821,4.64905459160697,4.99858670086264
146.25,1.50086534577687,1.18875441206301,1.74840512025785,2.43257975499985,2.88249750386364,3.83212469820401,4.71848316496629,5.51454444923495,1.21200323609181,1.92388568353775,2.58185192738921,2.88197716705743,3.56587973178864,4.67396373782846,5.32519661669085,1.34584148542085,1.98401911452567,2.46987031075753,3.00717683805731,3.58418827603607,4.69058285858266,5.48033976028598,3.66214779535601,4.09295893923093,4.73595778037405,5.08576391536183
146.875,1.50182167939735,1.27331760240097,1.83304607715808,2.51748576489707,2.96664265269643,3.91783047065399,4.80527175809097,5.60245756425734,1.29733385949183,2.00992110120629,2.66762836274309,2.96608494286129,3.6502343274606,4.76052600583491,5.41206232321749,1.43196594142265,2.07047722045778,2.55518416339593,3.09196400133611,3.66855963985212,4.77722973333229,5.56810632844774,3.74704907092117,4.17827740010646,4.82280977849914,5.17291653386439
147.5,1.50274111464959,1.35793786367674,1.91757733351676,2.60225748665159,3.05067308509748,4.00345284590328,4.89202274638205,5.69039040004894,1.38269818419017,2.09582609192178,2.75326563104596,3.05008004975035,3.73450669411727,4.84704903633135,5.49895267645243,1.51806214118965,2.15679871957072,2.64035797965614,3.17663624775137,3.75284420559699,4.8638301764896,5.65588289337022,3.83186876024427,4.2635286348851,4.90961622892367,5.26005057996601
148.125,1.50362565119132,1.44256869022928,2.00199240942852,2.68689658376916,3.13459246759299,4.08899659633662,4.9787415564426,5.77834913123079,1.46805329231649,2.18159679795975,2.83876591246526,3.13396604067587,3.81870156576796,4.93353828536835,5.58587388117539,1.60410063241281,2.24298063561509,2.72539370915953,3.26119731967598,3.83704685748152,4.95038991272999,5.74367585919679,3.9166115809358,4.34871789734916,4.99638278530988,5.34717208901253
148.75,1.5044771445439,1.52717506986694,2.08628668031079,2.77140511743323,3.21840460424503,4.17446652280771,5.06543363002922,5.86633996210215,1.5533668870911,2.26723069419201,2.92413169549586,3.21774661035625,3.90282371728706,5.01999922511652,5.67283217381279,1.69005907450936,2.32902116012079,2.81029366137619,3.3456510741991,3.92117251758687,5.03691467531097,5.8314916512382,4.00128228496401,4.43385046145763,5.08311511233517,5.4342871094161
149.375,1.50529731872497,1.61173044563044,2.17045700122492,2.85578548067527,3.30211341581962,4.25986745138044,5.15210442450724,5.95436912856817,1.63861450202298,2.35272633198364,3.00936572722845,3.30142557418695,3.98687795954237,5.10643734422462,5.75983382437483,1.77592048795485,2.4149194314932,2.89506044624784,3.43000146607633,4.0052261410655,5.12341020663232,5.91933671806364,4.08588565463051,4.51893161982645,5.16981888618657,5.52140170409336
