"ResFreq [GHz]","ResFreq2 [GHz]","Freq [GHz]","re(Z(1,1)) []","im(Z(1,1)) []"
270,282.5,125,0.293822985463354,2.43976334855261
270,282.5,125.625,0.295162973569391,2.53136636675958
270,282.5,126.25,0.296508691731075,2.62274050479692
270,282.5,126.875,0.297860206304671,2.71389361691963
270,282.5,127.5,0.299217592591661,2.80483346545614
270,282.5,128.125,0.30058093461105,2.89556772462169
270,282.5,128.75,0.301950324888645,2.98610398425116
270,282.5,129.375,0.303325864262755,3.07644975345486
270,282.5,130,0.304707661705598,3.16661246420149
270,282.5,130.625,0.306095834159864,3.25659947483154
270,282.5,131.25,0.307490506389848,3.34641807350509
270,282.5,131.875,0.308891810846653,3.43607548158708
270,282.5,132.5,0.310299887547014,3.52557885697374
270,282.5,133.125,0.311714883965203,3.61493529736323
270,282.5,133.75,0.31313695493772,3.70415184347387
270,282.5,134.375,0.314566262580264,3.7932354822129
270,282.5,135,0.316002976216756,3.88219314979897
270,282.5,135.625,0.317447272319952,3.97103173484113
270,282.5,136.25,0.318899334463476,4.05975808137757
270,282.5,136.875,0.320359353284879,4.1483789918765
270,282.5,137.5,0.321827526459578,4.23690123020239
270,282.5,138.125,0.323304058685384,4.32533152455005
270,282.5,138.75,0.324789161677464,4.41367657034934
270,282.5,139.375,0.326283054173476,4.50194303314318
270,282.5,140,0.327785961948887,4.59013755144145
270,282.5,140.625,0.329298117842114,4.67826673955333
270,282.5,141.25,0.330819761789573,4.76633719040071
270,282.5,141.875,0.332351140870426,4.85435547831522
270,282.5,142.5,0.333892509361008,4.94232816182115
270,282.5,143.125,0.335444128798847,5.03026178640715
270,282.5,143.75,0.337006268056244,5.11816288728881
270,282.5,144.375,0.338579203423449,5.20603799216478
270,282.5,145,0.340163218701367,5.29389362396883
270,282.5,145.625,0.341758605303831,5.38173630362036
270,282.5,146.25,0.343365662369524,5.46957255277567
270,282.5,146.875,0.34498469688359,5.55740889658264
270,282.5,147.5,0.346616023808952,5.6452518664411
270,282.5,148.125,0.348259966227527,5.73310800277155
270,282.5,148.75,0.349916855491409,5.82098385779448
270,282.5,149.375,0.351587031384133,5.90888599832311
270,282.5,150,0.353270842292186,5.99682100857177
270,282.5,150.625,0.354968645386968,6.08479549298273
270,282.5,151.25,0.356680806817376,6.17281607907388
270,282.5,151.875,0.358407701913148,6.26088942031003
270,282.5,152.5,0.36014971539938,6.34902219900045
270,282.5,153.125,0.361907241622248,6.43722112922525
270,282.5,153.75,0.363680684786352,6.52549295979358
270,282.5,154.375,0.365470459203963,6.61384447723621
270,282.5,155,0.367276989556461,6.7022825088356
270,282.5,155.625,0.369100711168256,6.79081392569611
270,282.5,156.25,0.370942070293709,6.8794456458576
270,282.5,156.875,0.372801524417243,6.96818463745542
270,282.5,157.5,0.374679542567282,7.05703792192974
270,282.5,158.125,0.37657660564421,7.14601257728769
270,282.5,158.75,0.378493206763079,7.23511574142162
270,282.5,159.375,0.380429851611341,7.32435461548654
270,282.5,160,0.382387058822285,7.4137364673408
270,282.5,160.625,0.384365360364693,7.50326863505309
270,282.5,161.25,0.38636530194924,7.59295853047986
270,282.5,161.875,0.3883874434524,7.68281364291677
270,282.5,162.5,0.390432359358412,7.77284154282835
270,282.5,163.125,0.392500639220051,7.8630498856597
270,282.5,163.75,0.394592888138911,7.95344641573487
270,282.5,164.375,0.3967097272661,8.0440389702459
270,282.5,165,0.398851794323931,8.13483548333741
270,282.5,165.625,0.401019744149813,8.22584399029126
270,282.5,166.25,0.403214249262906,8.31707263181636
270,282.5,166.875,0.405436000454846,8.4085296584486
270,282.5,167.5,0.407685707405251,8.50022343506625
270,282.5,168.125,0.409964099323363,8.59216244552633
270,282.5,168.75,0.412271925616775,8.68435529742776
270,282.5,169.375,0.414609956588539,8.77681072700706
270,282.5,170,0.416978984163887,8.86953760417312
270,282.5,170.625,0.419379822647904,8.96254493768719
270,282.5,171.25,0.421813309515599,9.05584188049514
270,282.5,171.875,0.42428030623582,9.1494377352188
270,282.5,172.5,0.426781699130586,9.24334195981396
270,282.5,173.125,0.429318400271561,9.33756417340252
270,282.5,173.75,0.431891348415339,9.43211416228693
270,282.5,174.375,0.434501509979419,9.52700188615535
270,282.5,175,0.437149880060879,9.62223748448614
270,282.5,175.625,0.439837483499705,9.71783128316113
270,282.5,176.25,0.442565375989066,9.81379380129699
270,282.5,176.875,0.445334645234776,9.91013575830503
270,282.5,177.5,0.448146412166417,10.0068680811898
270,282.5,178.125,0.451001832202641,10.1040019120976
270,282.5,178.75,0.453902096573474,10.2015486161268
270,282.5,179.375,0.456848433702437,10.2995197894112
270,282.5,180,0.459842110651526,10.3979272674905
270,282.5,180.625,0.462884434632375,10.4967831339803
270,282.5,181.25,0.465976754586898,10.5960997295564
270,282.5,181.875,0.469120462841192,10.6958896612667
270,282.5,182.5,0.472316996836373,10.7961658121891
270,282.5,183.125,0.47556784094058,10.8969413514484
270,282.5,183.75,0.478874528346339,10.9982297446119
270,282.5,184.375,0.482238643058019,11.1000447644808
270,282.5,185,0.485661821974039,11.2024005022956
270,282.5,185.625,0.489145757069254,11.3053113793785
270,282.5,186.25,0.492692197682731,11.4087921592292
270,282.5,186.875,0.496302952916982,11.5128579601018
270,282.5,187.5,0.499979894154687,11.6175242680814
270,282.5,188.125,0.503724957699586,11.7228069506891
270,282.5,188.75,0.507540147548485,11.8287222710381
270,282.5,189.375,0.511427538301907,11.9352869025716
270,282.5,190,0.515389278221215,12.0425179444098
270,282.5,190.625,0.519427592440781,12.1504329373366
270,282.5,191.25,0.523544786344125,12.2590498804603
270,282.5,191.875,0.527743249113631,12.3683872485804
270,282.5,192.5,0.53202545746418,12.4784640102994
270,282.5,193.125,0.536393979571407,12.5892996469155
270,282.5,193.75,0.540851479206471,12.7009141721393
270,282.5,194.375,0.545400720089706,12.8133281526764
270,282.5,195,0.550044570476312,12.9265627297219
270,282.5,195.625,0.554786007988584,13.0406396414156
270,282.5,196.25,0.559628124709589,13.1555812463089
270,282.5,196.875,0.564574132554817,13.2714105478992
270,282.5,197.5,0.56962736893899,13.3881512202875
270,282.5,198.125,0.57479130275688,13.5058276350239
270,282.5,198.75,0.580069540697945,13.6244648892027
270,282.5,199.375,0.585465833916371,13.7440888348806
270,282.5,200,0.590984085079359,13.8647261098888
270,282.5,200.625,0.596628355818446,13.9864041701189
270,282.5,201.25,0.60240287461028,14.1091513233669
270,282.5,201.875,0.608312045115329,14.2329967648237
270,282.5,202.5,0.614360455005159,14.357970614307
270,282.5,203.125,0.620552885311169,14.4841039553374
270,282.5,203.75,0.626894320330224,14.6114288761645
270,282.5,204.375,0.633389958125351,14.7399785128607
270,282.5,205,0.640045221662702,14.8697870946045
270,282.5,205.625,0.646865770628961,15.0008899912849
270,282.5,206.25,0.653857513977244,15.1333237635691
270,282.5,206.875,0.661026623253056,15.2671262155816
270,282.5,207.5,0.668379546756129,15.4023364503579
270,282.5,208.125,0.675923024598562,15.5389949282441
270,282.5,208.75,0.683664104724495,15.6771435284274
270,282.5,209.375,0.691610159962021,15.8168256137963
270,282.5,210,0.699768906183925,15.9580860993409
270,282.5,210.625,0.708148421660304,16.1009715243241
270,282.5,211.25,0.716757167693053,16.2455301284669
270,282.5,211.875,0.725604010630124,16.3918119324106
270,282.5,212.5,0.73469824536572,16.5398688227407
270,282.5,213.125,0.744049620441994,16.6897546418759
270,282.5,213.75,0.753668364877995,16.8415252831495
270,282.5,214.375,0.763565216862721,16.9952387914385
270,282.5,215,0.773751454461649,17.1509554697198
270,282.5,215.625,0.784238928499356,17.3087379919654
270,282.5,216.25,0.795040097796074,17.4686515228198
270,282.5,216.875,0.80616806695239,17.6307638445409
270,282.5,217.5,0.817636626894416,17.7951454917209
270,282.5,218.125,0.829460298411907,17.9618698943503
270,282.5,218.75,0.841654378944093,18.1310135298328
270,282.5,219.375,0.854234992892492,18.3026560846087
270,282.5,220,0.867219145767233,18.4768806261031
270,282.5,220.625,0.880624782503834,18.653773785774
270,282.5,221.25,0.89447085032085,18.8334259541037
270,282.5,221.875,0.908777366526122,19.0159314884499
270,282.5,222.5,0.923565491721205,19.2013889347548
270,282.5,223.125,0.9388576088996,19.389901264198
270,282.5,223.75,0.954677408986561,19.5815761259796
270,282.5,224.375,0.971049983425408,19.776526117525
270,282.5,225,0.988001924480715,19.9748690735255
270,282.5,225.625,1.00556143400037,20.1767283753567
270,282.5,226.25,1.02375844146023,20.3822332825674
270,282.5,226.875,1.04262473220586,20.5915192882878
270,282.5,227.5,1.06219408690852,20.8047285005885
270,282.5,228.125,1.08250243336781,21.022010052018
270,282.5,228.75,1.10358801192345,21.2435205397681
270,282.5,229.375,1.12549155588536,21.4694244991598
270,282.5,230,1.14825648855758,21.6998949134168
270,282.5,230.625,1.17192913861898,21.9351137629968
270,282.5,231.25,1.1965589758373,22.1752726180895
270,282.5,231.875,1.22219886933508,22.420573278271
270,282.5,232.5,1.24890537090149,22.6712284637269
270,282.5,233.125,1.27673902615797,22.9274625629319
270,282.5,233.75,1.30576471674411,23.1895124422087
270,282.5,234.375,1.33605203709979,23.4576283231852
270,282.5,235,1.36767570988942,23.7320747348465
270,282.5,235.625,1.40071604465258,24.0131315476342
270,282.5,236.25,1.43525944488495,24.3010950979063
270,282.5,236.875,1.47139896946759,24.5962794120351
270,282.5,237.5,1.50923495518588,24.8990175405223
270,282.5,238.125,1.54887570803321,25.2096630137475
270,282.5,238.75,1.59043827209872,25.5285914323807
270,282.5,239.375,1.63404928612211,25.8562022070946
270,282.5,240,1.67984593929256,26.1929204640369
270,282.5,240.625,1.72797703961237,26.5391991346127
270,282.5,241.25,1.77860421018549,26.8955212505088
270,282.5,241.875,1.83190323118205,27.2624024676239
270,282.5,242.5,1.88806554804135,27.6403938456985
270,282.5,243.125,1.94729996978775,28.0300849140404
270,282.5,243.75,2.00983458524818,28.4321070578842
270,282.5,244.375,2.0759189295984,28.8471372647035
270,282.5,245,2.14582643917476,29.2759022753222
270,282.5,245.625,2.21985723905706,29.7191831910636
270,282.5,246.25,2.2983413157767,30.1778205956053
270,282.5,246.875,2.38164213691822,30.6527202588277
270,282.5,247.5,2.47016079070486,31.1448595000011
270,282.5,248.125,2.56434073232503,31.6552942993756
270,282.5,248.75,2.66467324030893,32.1851672609546
270,282.5,249.375,2.77170370638324,32.7357165452921
270,282.5,250,2.88603890677609,33.3082859100044
270,282.5,250.625,3.0083554330051,33.9043360178481
270,282.5,251.25,3.13940949714115,34.5254571983185
270,282.5,251.875,3.28004837217488,35.1733838795008
270,282.5,252.5,3.43122378469791,35.8500109432702
270,282.5,253.125,3.59400764758512,36.5574122999226
270,282.5,253.75,3.76961060854654,37.2978620291872
270,282.5,254.375,3.95940400128522,38.0738584947942
270,282.5,255,4.16494592608104,38.8881519110274
270,282.5,255.625,4.38801236454071,39.7437759239563
270,282.5,256.25,4.63063446044276,40.6440838694354
270,282.5,256.875,4.89514339033551,41.5927904868321
270,282.5,257.5,5.18422462432398,42.5940200040565
270,282.5,258.125,5.50098386704526,43.6523616678007
270,282.5,258.75,5.84902760892216,44.7729339739715
270,282.5,259.375,6.2325620601239,45.961459056183
270,282.5,260,6.6565153555948,47.2243489100744
270,282.5,260.625,7.12668940816572,48.5688053563591
270,282.5,261.25,7.64994978679976,50.0029358516111
270,282.5,261.875,8.23446470378842,51.5358873967588
270,282.5,262.5,8.89000788523588,53.1780007850691
270,282.5,263.125,9.62834516885599,54.9409871245754
270,282.5,263.75,10.4637316895538,56.8381277016343
270,282.5,264.375,11.4135562950949,58.8844963634181
270,282.5,265,12.4991835655254,61.0971998860115
270,282.5,265.625,13.7470632042518,63.495624858867
270,282.5,266.25,15.1902040943746,66.101666990037
270,282.5,266.875,16.8701494857022,68.9398960572009
270,282.5,267.5,18.8396454729827,72.0375692183951
270,282.5,268.125,21.1662735575266,75.4243330721559
270,282.5,268.75,23.9374271097696,79.1313253974752
270,282.5,269.375,27.2671568485331,83.1891547844621
270,282.5,270,31.3055876790174,87.6238162300454
270,282.5,270.625,36.2517790891954,92.4488406678883
270,282.5,271.25,42.3709233640031,97.6506060143805
270,282.5,271.875,50.0162389682187,103.161304577495
270,282.5,272.5,59.6537231666075,108.809916251331
270,282.5,273.125,71.8813493785521,114.235155377581
270,282.5,273.75,87.4171478133505,118.73709208015
270,282.5,274.375,106.991294052837,121.045632729342
270,282.5,275,131.004506395513,119.030000194123
270,282.5,275.625,158.744112302277,109.553394059134
270,282.5,276.25,187.114439377255,89.0831100195931
270,282.5,276.875,209.774218656427,55.9295012685944
270,282.5,277.5,218.995324981421,13.5431665112855
270,282.5,278.125,210.94570335141,-29.1335935063822
270,282.5,278.75,189.113431626738,-62.9960201025259
270,282.5,279.375,161.138710561834,-84.2825538154429
270,282.5,280,133.477620376762,-94.4729918926835
270,282.5,280.625,109.373880702462,-97.0371509997915
270,282.5,281.25,89.6416515070505,-95.127344077892
270,282.5,281.875,73.9334392501565,-90.9106715446515
270,282.5,282.5,61.5425532657505,-85.6904897189863
270,282.5,283.125,51.7594974277327,-80.1915682290136
270,282.5,283.75,43.9881540036776,-74.7925335380523
270,282.5,284.375,37.7617029159442,-69.6763882566353
270,282.5,285,32.7251673469535,-64.9194439655847
270,282.5,285.625,28.611262554321,-60.5417196569044
270,282.5,286.25,25.218466571752,-56.5348554751541
270,282.5,286.875,22.39338744651,-52.8771160655832
270,282.5,287.5,20.0174307884658,-49.5407434598568
270,282.5,288.125,17.9977485233911,-46.4947272344747
270,282.5,288.75,16.2625223812959,-43.705932127953
270,282.5,289.375,14.7587479713999,-41.1416899996687
270,282.5,290,13.4486601981148,-38.773872723249
270,282.5,290.625,12.3039468960644,-36.5808135660161
270,282.5,291.25,11.30106731985,-34.5458149183955
270,282.5,291.875,10.4194213328957,-32.6547990801777
270,282.5,292.5,9.64111412268971,-30.8949916175314
270,282.5,293.125,8.95093827201797,-29.2545589332999
270,282.5,293.75,8.33616337171602,-27.7226103776851
270,282.5,294.375,7.78619419332528,-26.2892387371461
270,282.5,295,7.29220861866855,-24.945512030962
270,282.5,295.625,6.84683333296407,-23.6834204787167
270,282.5,296.25,6.44387387137895,-22.4957993107978
270,282.5,296.875,6.07809678783513,-21.376243592748
270,282.5,297.5,5.74505577597146,-20.3190244270524
270,282.5,298.125,5.44095301215406,-19.3190110752724
270,282.5,298.75,5.16252818201949,-18.371600749939
270,282.5,299.375,4.90696915894158,-17.4726563667365
270,282.5,300,4.67183965033854,-16.6184518516898
270,282.5,300.625,4.45502020957774,-15.8056243093602
270,282.5,301.25,4.254659844041,-15.0311322761859
270,282.5,301.875,4.06913608116934,-14.2922193007109
270,282.5,302.5,3.89702183129328,-13.5863821536135
270,282.5,303.125,3.73705774753086,-12.9113430468343
270,282.5,303.75,3.58812905856613,-12.2650253188404
270,282.5,304.375,3.44924606163668,-11.6455321158157
270,282.5,305,3.31952762664415,-11.0511276638487
270,282.5,305.625,3.19818718975629,-10.4802207844051
270,282.5,306.25,3.08452081487761,-9.93135035486882
270,282.5,306.875,2.97789698036089,-9.40317245840505
270,282.5,307.5,2.87774781112095,-8.89444900369716
270,282.5,308.125,2.7835615265094,-8.40403762605318
270,282.5,308.75,2.69487591465693,-7.93088270773446
270,282.5,309.375,2.61127267658772,-7.47400737781435
270,282.5,310,2.53237250987125,-7.03250637101052
270,282.5,310.625,2.45783082315323,-6.60553964126423
270,282.5,311.25,2.38733399057578,-6.19232663978631
270,282.5,311.875,2.32059606962504,-5.79214117922532
270,282.5,312.5,2.25735591793424,-5.40430681583691
270,282.5,313.125,2.19737465450531,-5.0281926903134
270,282.5,313.75,2.14043341907027,-4.66320977547793
270,282.5,314.375,2.08633139020489,-4.30880748555077
270,282.5,315,2.03488402857322,-3.96447060730518
270,282.5,315.625,1.98592151652536,-3.62971651828207
270,282.5,316.25,1.93928736934827,-3.3040926614342
270,282.5,316.875,1.89483719691582,-2.98717424921752
270,282.5,317.5,1.85243759740229,-2.67856217331673
270,282.5,318.125,1.81196516720387,-2.37788109895367
270,282.5,318.75,1.77330561332394,-2.08477772513599
270,282.5,319.375,1.73635295628252,-1.79891919430931
270,282.5,320,1.70100881315378,-1.51999163671964
270,282.5,320.625,1.66718175166146,-1.24769883641017
270,282.5,321.25,1.6347867074016,-0.981761007197528
270,282.5,321.875,1.60374445724561,-0.721913668222689
270,282.5,322.5,1.57398114282581,-0.467906609774502
270,282.5,323.125,1.54542783874131,-0.219502941056131
270,282.5,323.75,1.51802016076091,0.0235217875733953
270,282.5,324.375,1.49169790985434,0.261380394589525
270,282.5,325,1.46640474836755,0.494274815554255
270,282.5,325.625,1.44208790507944,0.722396795060303
270,282.5,326.25,1.41869790624764,0.945928527262526
270,282.5,326.875,1.39618833007409,1.16504324941681
270,282.5,327.5,1.37451558230566,1.37990579242167
270,282.5,328.125,1.3536386909352,1.59067309197926
270,282.5,328.75,1.33351911818845,1.79749466365271
270,282.5,329.375,1.31412058817713,2.00051304479395
270,282.5,330,1.29540892877002,2.19986420604361
270,282.5,330.625,1.27735192638688,2.39567793486022
270,282.5,331.25,1.25991919255475,2.58807819331699
270,282.5,331.875,1.24308204118698,2.77718345220605
270,282.5,332.5,1.22681337565254,2.96310700331314
270,282.5,333.125,1.21108758479871,3.14595725156461
270,282.5,333.75,1.19588044717655,3.32583798860454
270,282.5,334.375,1.18116904279536,3.50284864922825
270,282.5,335,1.16693167180171,3.67708455198097
270,282.5,335.625,1.15314777954155,3.84863712512243
270,282.5,336.25,1.13979788752063,4.01759411906211
270,282.5,336.875,1.12686352983034,4.18403980628022
270,282.5,337.5,1.11432719465358,4.34805516967044
270,282.5,338.125,1.10217227050854,4.50971808016642
270,282.5,338.75,1.09038299692921,4.6691034644473
270,282.5,339.375,1.07894441931844,4.82628346345582
270,282.5,340,1.06784234774483,4.98132758240555
270,282.5,340.625,1.05706331948778,5.13430283290069
270,282.5,341.25,1.04659456516598,5.28527386774213
270,282.5,341.875,1.03642397831407,5.43430310894472
270,282.5,342.5,1.02654008829899,5.58145086944507
270,282.5,343.125,1.01693203649158,5.72677546893183
270,282.5,343.75,1.00758955562867,5.87033334418386
270,282.5,344.375,0.99850295231353,6.01217915425246
270,282.5,345,0.989663092603952,6.1523658807737
270,282.5,345.625,0.981061390621038,6.29094492364688
270,282.5,346.25,0.97268980006781,6.427966192271
270,282.5,346.875,0.964540808461716,6.56347819250673
270,282.5,347.5,0.956607433744738,6.69752810955656
270,282.5,348.125,0.948883222729787,6.83016188708537
270,282.5,348.75,0.941362250592862,6.96142430323763
270,282.5,349.375,0.93403912042558,7.09135904489303
270,282.5,350,0.926908961998966,7.22000878271244
270,282.5,350.625,0.919967429953455,7.34741525130478
270,282.5,351.25,0.913210704620585,7.47361934069614
270,282.5,351.875,0.906635504609059,7.59866120537699
270,282.5,352.5,0.900239128489173,7.72258039169058
270,282.5,353.125,0.894019547597064,7.84541596886
270,282.5,353.75,0.887975560300946,7.9672066261009
270,282.5,354.375,0.882106980226296,8.08799068870039
270,282.5,355,0.876414787530452,8.20780604135997
270,282.5,355.625,0.870901181244006,8.32669002119233
270,282.5,356.25,0.865569554970081,8.44467937657218
270,282.5,356.875,0.86042449192154,8.56181032118974
270,282.5,357.5,0.855471844872412,8.67811862043279
270,282.5,358.125,0.850718882926676,8.79363964060099
270,282.5,358.75,0.846174458113464,8.90840834903566
270,282.5,359.375,0.84184917439,9.02245928666967
270,282.5,360,0.837755568903825,9.13582652500031
270,282.5,360.625,0.833908317158405,9.24854360138857
270,282.5,361.25,0.830324464696479,9.36064341988978
