"ResFreq [GHz]","ResFreq2 [GHz]","Freq [GHz]","re(Z(1,1)) []","im(Z(1,1)) []"
290,300,125,0.263219979781444,0.58259659794204
290,300,125.625,0.264222203285216,0.673784641187402
290,300,126.25,0.265231578237086,0.764669154349056
290,300,126.875,0.266248110305333,0.855257541142025
290,300,127.5,0.26727180915035,0.945557103645513
290,300,128.125,0.26830268839519,1.03557504552948
290,300,128.75,0.269340765599026,1.12531847520417
290,300,129.375,0.270386062233433,1.2147944088956
290,300,130,0.271438603661426,1.30400977364985
290,300,130.625,0.27249841911934,1.39297141026915
290,300,131.25,0.273565541701384,1.48168607618235
290,300,131.875,0.274640008346905,1.57016044825251
290,300,132.5,0.27572185983039,1.65840112552414
290,300,133.125,0.276811140754059,1.74641463191259
290,300,133.75,0.277907899543161,1.834207418838
290,300,134.375,0.279012188443902,1.92178586780602
290,300,135,0.280124063523971,2.00915629293784
290,300,135.625,0.281243584675692,2.09632494345133
290,300,136.25,0.28237081562187,2.1832980060958
290,300,136.875,0.283505823924119,2.27008160754217
290,300,137.5,0.2846486809939,2.35668181673072
290,300,138.125,0.285799462106206,2.44310464717828
290,300,138.75,0.286958246415801,2.52935605924683
290,300,139.375,0.288125116976176,2.61544196237533
290,300,140,0.289300160761135,2.70136821727659
290,300,140.625,0.290483468689065,2.78714063810096
290,300,141.25,0.29167513564994,2.87276499456856
290,300,141.875,0.292875260535011,2.95824701407175
290,300,142.5,0.294083946269273,3.04359238374935
290,300,143.125,0.295301299846728,3.12880675253458
290,300,143.75,0.296527432368441,3.21389573317779
290,300,144.375,0.297762459083502,3.29886490424604
290,300,145,0.299006499432825,3.3837198121007
290,300,145.625,0.300259677095955,3.46846597285469
290,300,146.25,0.301522120040827,3.55310887431094
290,300,146.875,0.302793960576567,3.63765397788328
290,300,147.5,0.304075335409415,3.72210672050149
290,300,148.125,0.305366385701793,3.80647251650161
290,300,148.75,0.306667257134589,3.89075675950321
290,300,149.375,0.307978099972713,3.9749648242748
290,300,150,0.309299069134034,4.05910206858877
290,300,150.625,0.310630324261741,4.14317383506737
290,300,151.25,0.311972029800181,4.22718545302093
290,300,151.875,0.313324355074303,4.31114224027963
290,300,152.5,0.314687474372836,4.39504950502039
290,300,153.125,0.316061567035114,4.47891254758996
290,300,153.75,0.31744681754188,4.56273666232562
290,300,154.375,0.318843415609983,4.64652713937494
290,300,155,0.320251556291207,4.73028926651576
290,300,155.625,0.32167144007521,4.81402833097776
290,300,156.25,0.323103272996832,4.89774962126714
290,300,156.875,0.324547266747805,4.98145842899538
290,300,157.5,0.326003638792996,5.0651600507139
290,300,158.125,0.327472612491352,5.14885978975549
290,300,158.75,0.328954417221713,5.23256295808434
290,300,159.375,0.330449288513485,5.31627487815567
290,300,160,0.331957468182614,5.40000088478663
290,300,160.625,0.333479204472709,5.48374632703973
290,300,161.25,0.335014752201684,5.56751657012027
290,300,161.875,0.336564372914056,5.65131699728927
290,300,162.5,0.338128335039052,5.73515301179331
290,300,163.125,0.339706914054699,5.81903003881278
290,300,163.75,0.341300392658223,5.90295352743019
290,300,164.375,0.342909060942773,5.98692895261982
290,300,165,0.344533216580891,6.07096181726065
290,300,165.625,0.346173165014849,6.15505765417383
290,300,166.25,0.347829219654035,6.23922202818667
290,300,166.875,0.349501702079845,6.32346053822453
290,300,167.5,0.351190942258141,6.40777881943256
290,300,168.125,0.352897278759653,6.492182545329
290,300,168.75,0.354621058988585,6.57667742999175
290,300,169.375,0.356362639419763,6.66126923028026
290,300,170,0.358122385844584,6.74596374809446
290,300,170.625,0.359900673626134,6.83076683267283
290,300,171.25,0.361697887963848,6.91568438293157
290,300,171.875,0.363514424167983,7.00072234984694
290,300,172.5,0.365350687944393,7.08588673888299
290,300,173.125,0.367207095689938,7.17118361246677
290,300,173.75,0.369084074798905,7.25661909251336
290,300,174.375,0.370982063981009,7.34219936300315
290,300,175,0.372901513591281,7.42793067261361
290,300,175.625,0.374842885972416,7.51381933740826
290,300,176.25,0.376806655810007,7.59987174358526
290,300,176.875,0.378793310501278,7.68609435028851
290,300,177.5,0.380803350537767,7.77249369248375
290,300,178.125,0.382837289902581,7.85907638390283
290,300,178.75,0.384895656482848,7.94584912005899
290,300,179.375,0.386978992497922,8.03281868133626
290,300,180,0.389087854944067,8.11999193615612
290,300,180.625,0.391222816056298,8.20737584422493
290,300,181.25,0.393384463788056,8.29497745986543
290,300,181.875,0.395573402309527,8.38280393543594
290,300,182.5,0.397790252525434,8.47086252484099
290,300,183.125,0.400035652613032,8.5591605871374
290,300,183.75,0.402310258581283,8.64770559023949
290,300,184.375,0.404614744852097,8.73650511472814
290,300,185,0.406949804864602,8.82556685776752
290,300,185.625,0.409316151703484,8.91489863713452
290,300,186.25,0.41171451875242,9.00450839536524
290,300,186.875,0.414145660373816,9.09440420402386
290,300,187.5,0.416610352615906,9.18459426809862
290,300,188.125,0.419109393948581,9.27508693053071
290,300,188.75,0.421643606029167,9.36589067688134
290,300,189.375,0.424213834499542,9.45701414014309
290,300,190,0.426820949816093,9.54846610570143
290,300,190.625,0.429465848113975,9.64025551645305
290,300,191.25,0.432149452107267,9.73239147808745
290,300,191.875,0.434872712026762,9.8248832645388
290,300,192.5,0.437636606597175,9.91774032361552
290,300,193.125,0.440442144055535,10.010972282815
290,300,193.75,0.443290363212874,10.1045889553315
290,300,194.375,0.44618233456124,10.1986003462657
290,300,195,0.449119161428166,10.2930166590445
290,300,195.625,0.452101981181018,10.3878483020601
290,300,196.25,0.455131966483613,10.4831058955381
290,300,196.875,0.458210326607658,10.5788002786453
290,300,197.5,0.461338308801807,10.674942516846
290,300,198.125,0.464517199721156,10.7715439095198
290,300,198.75,0.467748326920248,10.8686159978512
290,300,199.375,0.471033060412767,10.9661705730039
290,300,200,0.474372814301401,11.0642196845919
290,300,200.625,0.477769048481357,11.1627756494613
290,300,201.25,0.481223270421423,11.2618510607965
290,300,201.875,0.484737037026558,11.3614587975663
290,300,202.5,0.488311956586316,11.4616120343243
290,300,203.125,0.491949690813555,11.5623242513809
290,300,203.75,0.495651956978282,11.6636092453638
290,300,204.375,0.499420530141669,11.7654811401846
290,300,205,0.503257245495624,11.8679543984319
290,300,205.625,0.507164000813664,11.9710438332087
290,300,206.25,0.511142759019054,12.0747646204377
290,300,206.875,0.515195550876736,12.1791323116546
290,300,207.5,0.519324477815842,12.2841628473147
290,300,208.125,0.523531714889992,12.3898725706357
290,300,208.75,0.527819513883196,12.4962782420043
290,300,209.375,0.532190206569439,12.6033970539733
290,300,210,0.536646208134738,12.711246646878
290,300,210.625,0.541190020770946,12.8198451251036
290,300,211.25,0.545824237451183,12.9292110740351
290,300,211.875,0.550551545897322,13.0393635777238
290,300,212.5,0.55537473275097,13.1503222373072
290,300,213.125,0.560296687959599,13.2621071902208
290,300,213.75,0.565320409390811,13.374739130241
290,300,214.375,0.570449007688236,13.4882393284029
290,300,215,0.575685711383597,13.6026296548387
290,300,215.625,0.581033872280447,13.7179326015838
290,300,216.25,0.58649697112615,13.834171306402
290,300,216.875,0.592078623589827,13.9513695776842
290,300,217.5,0.597782586565223,14.0695519204767
290,300,218.125,0.603612764818694,14.1887435637017
290,300,218.75,0.60957321800418,14.3089704886324
290,300,219.375,0.615668168068178,14.4302594586931
290,300,220,0.621902007069893,14.5526380506557
290,300,220.625,0.628279305443066,14.6761346873109
290,300,221.25,0.634804820728301,14.8007786716957
290,300,221.875,0.641483506806564,14.9266002229658
290,300,222.5,0.648320523666979,15.053630514005
290,300,223.125,0.65532124774439,15.1819017108712
290,300,223.75,0.662491282864906,15.3114470141855
290,300,224.375,0.669836471840531,15.4423007025762
290,300,225,0.677362908757133,15.5744981782988
290,300,225.625,0.685076952003313,15.70807601516
290,300,226.25,0.692985238091699,15.8430720088825
290,300,226.875,0.701094696328,15.9795252300581
290,300,227.5,0.709412564387411,16.1174760798446
290,300,228.125,0.717946404863373,16.2569663485741
290,300,228.75,0.726704122858007,16.3980392774528
290,300,229.375,0.73569398468993,16.5407396235424
290,300,230,0.744924637800986,16.6851137282309
290,300,230.625,0.754405131950372,16.8312095894106
290,300,231.25,0.764144941791777,16.9790769376019
290,300,231.875,0.774153990937599,17.1287673162742
290,300,232.5,0.784442677622752,17.2803341666385
290,300,233.125,0.795021902090515,17.4338329172027
290,300,233.75,0.805903095833437,17.5893210784045
290,300,234.375,0.817098252833855,17.7468583426611
290,300,235,0.828619962961558,17.9065066901993
290,300,235.625,0.840481447699864,18.0683305010591
290,300,236.25,0.852696598387297,18.2323966736939
290,300,236.875,0.865280017178599,18.3987747506243
290,300,237.5,0.878247060947813,18.5675370516374
290,300,238.125,0.891613888376982,18.738758815066
290,300,238.75,0.90539751049639,18.9125183477217
290,300,239.375,0.919615844968117,19.0888971841056
290,300,240,0.93428777443206,19.267980255572
290,300,240.625,0.949433209264929,19.4498560701744
290,300,241.25,0.965073155136539,19.6346169039873
290,300,241.875,0.981229785786435,19.8223590047643
290,300,242.5,0.997926521485281,20.0131828088666
290,300,243.125,1.01518811369329,20.2071931724772
290,300,243.75,1.03304073647963,20.4044996182067
290,300,244.375,1.0515120853256,20.6052165982939
290,300,245,1.07063148399888,20.8094637757127
290,300,245.625,1.09043000025968,21.0173663246154
290,300,246.25,1.11094057123992,21.2290552516766
290,300,246.875,1.1321981394288,21.4446677400429
290,300,247.5,1.15423980029942,21.6643475177566
290,300,248.125,1.17710496272639,21.8882452526995
290,300,248.75,1.20083552347314,22.1165189762967
290,300,249.375,1.22547605717315,22.3493345384398
290,300,250,1.25107402339274,22.5868660963312
290,300,250.625,1.27767999254863,22.8292966402174
290,300,251.25,1.30534789266213,23.0768185592799
290,300,251.875,1.33413527916884,23.3296342512834
290,300,252.5,1.36410363027177,23.5879567799537
290,300,253.125,1.39531867063038,23.8520105844694
290,300,253.75,1.42785072652614,24.1220322459154
290,300,254.375,1.46177511604034,24.3982713160649
290,300,255,1.49717257823217,24.6809912144346
290,300,255.625,1.53412974582213,24.9704702002119
290,300,256.25,1.57273966647731,25.2670024263814
290,300,256.875,1.61310237847544,25.5708990842042
290,300,257.5,1.65532554730555,25.8824896471276
290,300,258.125,1.69952517066393,26.2021232242525
290,300,258.75,1.74582636034323,26.5301700346658
290,300,259.375,1.79436421071504,26.8670230152817
290,300,260,1.84528476490002,27.2130995763551
290,300,260.625,1.89874609133901,27.568843520546
290,300,261.25,1.95491948536306,27.9347271433722
290,300,261.875,2.01399081256038,28.311253535109
290,300,262.5,2.07616201331033,28.6989591067347
290,300,263.125,2.14165279087131,29.0984163654154
290,300,263.75,2.21070250895358,29.5102369683327
290,300,264.375,2.28357232888576,29.9350750874558
290,300,265,2.36054762141813,30.3736311222063
290,300,265.625,2.44194069405202,30.8266558019681
290,300,266.25,2.52809388172919,31.2949547261446
290,300,266.875,2.61938305698804,31.7793933960976
290,300,267.5,2.71622162558048,32.2809028009558
290,300,268.125,2.81906508539182,32.800485628124
290,300,268.75,2.92841624075377,33.3392231795636
290,300,269.375,3.04483118142784,33.8982830867776
290,300,270,3.16892615633993,34.4789279312005
290,300,270.625,3.30138549741625,35.0825248926781
290,300,271.25,3.44297077967571,35.7105565673072
290,300,271.875,3.59453144142703,36.364633117513
290,300,272.5,3.75701713472053,37.0465059423827
290,300,273.125,3.93149213330738,37.7580830855068
290,300,273.75,4.11915219607616,38.5014466315569
290,300,274.375,4.32134437188802,39.278872382247
290,300,275,4.5395903416058,40.0928521479566
290,300,275.625,4.77561403100191,40.9461190439027
290,300,276.25,5.0313744021024,41.8416762400696
290,300,276.875,5.30910455084617,42.7828296826826
290,300,277.5,5.6113585195353,43.7732253820523
290,300,278.125,5.94106759178752,44.8168919465861
290,300,278.75,6.30160830009635,45.9182891339085
290,300,279.375,6.69688497458814,47.0823632834348
290,300,280,7.13143044061041,48.3146105828905
290,300,280.625,7.61052949277523,49.6211491907101
290,300,281.25,8.14037111646733,51.0088012637752
290,300,281.875,8.72823720776457,52.4851858864268
290,300,282.5,9.38273791526543,54.0588236969983
290,300,283.125,10.1141069086201,55.7392535546542
290,300,283.75,10.9345741689535,57.53716070484
290,300,284.375,11.8588397140239,59.4645142942566
290,300,285,12.9046795979201,61.5347092740885
290,300,285.625,14.0937263686541,63.7627029148829
290,300,286.25,15.4524810368028,66.1651280082529
290,300,286.875,17.0136340023237,68.7603511215423
290,300,287.5,18.8178002576506,71.5684212448081
290,300,288.125,20.915811907681,74.610815449317
290,300,288.75,23.3717610763609,77.9098228837093
290,300,289.375,26.2670499845095,81.4872979354904
290,300,290,29.7057795129954,85.3623257717828
290,300,290.625,33.8218777998615,89.5470244615927
290,300,291.25,38.7883898361046,94.0391668791712
290,300,291.875,44.8291951487634,98.8093978907669
290,300,292.5,52.2327950659124,103.779339045316
290,300,293.125,61.3660258154287,108.784588145829
290,300,293.75,72.6811171925886,113.513562901162
290,300,294.375,86.6994997398776,117.410570451728
290,300,295,103.935545166539,119.534771523225
290,300,295.625,124.690071938562,118.391851909324
290,300,296.25,148.613447834569,111.836977999242
290,300,296.875,173.996991031965,97.3212942751974
290,300,297.5,197.096329820201,72.9184665298809
290,300,298.125,212.466594592488,39.209685637316
290,300,298.75,215.317939375646,0.683438640515879
290,300,299.375,204.726058648867,-35.6316443184995
290,300,300,184.33055210523,-63.9637343790935
290,300,300.625,159.671288284491,-82.325415784314
290,300,301.25,135.230200097006,-91.9143938395984
290,300,301.875,113.417237566841,-95.17586554841
290,300,302.5,95.0120428747427,-94.4323614747261
290,300,303.125,79.9135858490075,-91.4032070589212
290,300,303.75,67.6735127112017,-87.2131088744586
290,300,304.375,57.7724584087758,-82.5465330185069
290,300,305,49.73400158498,-77.7979597520378
290,300,305.625,43.1594647714735,-73.1801334365085
290,300,306.25,37.7315315498058,-68.7944937520922
290,300,306.875,33.2074617218854,-64.677851260611
290,300,307.5,29.4066325172132,-60.8349929662378
290,300,308.125,26.1939419026641,-57.2587781302153
290,300,308.75,23.464416081423,-53.9383645304486
290,300,309.375,21.1334007643091,-50.8606713768201
290,300,310,19.1316537970905,-48.010461589848
290,300,310.625,17.4026499930701,-45.3709940207002
290,300,311.25,15.9004880101126,-42.9250231954187
290,300,311.875,14.5879868838494,-40.6556669154589
290,300,312.5,13.4349959903286,-38.5469686632898
290,300,313.125,12.4169739538959,-36.5841854863344
290,300,313.75,11.5138396733302,-34.7538875169051
290,300,314.375,10.7090633249693,-33.043945485047
290,300,315,9.98895402235352,-31.443458738574
290,300,315.625,9.34210272752834,-29.9426560192823
290,300,316.25,8.75894561487336,-28.5327875099889
290,300,316.875,8.23142030107049,-27.206018196117
290,300,317.5,7.75269366058038,-25.9553276077329
290,300,318.125,7.31694499815124,-24.7744181724699
290,300,318.75,6.91919224087088,-23.6576328403327
290,300,319.375,6.55515175636605,-22.5998818056546
290,300,320,6.22112461680226,-21.5965777354126
290,300,320.625,5.91390379094617,-20.643578733752
290,300,321.25,5.63069799907478,-19.73713822397
290,300,321.875,5.36906891341143,-18.8738609502013
290,300,322.5,5.12687910809108,-18.0506643565893
290,300,323.125,4.90224871483729,-17.2647446718864
290,300,323.75,4.6935191658246,-16.5135471011638
290,300,324.375,4.49922273475703,-15.7947395977175
290,300,325,4.31805684409344,-15.1061897543956
290,300,325.625,4.14886230777289,-14.4459444132389
290,300,326.25,3.99060483760041,-13.8122116452533
290,300,326.875,3.84235926733257,-13.2033447985605
290,300,327.5,3.70329604879347,-12.6178283536159
290,300,328.125,3.57266965464812,-12.0542653592328
290,300,328.75,3.44980858705122,-11.511366253444
290,300,329.375,3.33410674357812,-10.987938899349
290,300,330,3.22501593419662,-10.4828796886078
290,300,330.625,3.12203937754675,-9.99516558461909
290,300,331.25,3.02472603302658,-9.52384699411996
290,300,331.875,2.93266564836322,-9.06804137032798
290,300,332.5,2.84548442145444,-8.62692746315119
290,300,333.125,2.76284119106848,-8.19974014269877
290,300,333.75,2.68442408410322,-7.78576573157426
290,300,334.375,2.60994755802601,-7.38433778943743
290,300,335,2.53914978623558,-6.99483330025044
290,300,335.625,2.47179034172947,-6.61666921863747
290,300,336.25,2.40764814088279,-6.2492993370078
290,300,336.875,2.34651961455616,-5.89221143963669
290,300,337.5,2.28821707832547,-5.54492471385413
290,300,338.125,2.23256727750276,-5.20698739194578
290,300,338.75,2.17941008591147,-4.87797460038678
290,300,339.375,2.12859734018603,-4.55748639567103
290,300,340,2.07999179376181,-4.24514596831179
290,300,340.625,2.03346617677367,-3.94059799862308
290,300,341.25,1.98890234984138,-3.64350714967632
290,300,341.875,1.94619054123487,-3.35355668440187
290,300,342.5,1.90522865821681,-3.07044719519079
290,300,343.125,1.86592166448788,-2.79389543557875
290,300,343.75,1.82818101663512,-2.52363324467741
290,300,344.375,1.79192415333088,-2.25940655597894
290,300,345,1.75707403176453,-2.00097448301106
290,300,345.625,1.72355870642947,-1.74810847507638
290,300,346.25,1.69131094594673,-1.50059153698321
290,300,346.875,1.66026788409333,-1.25821750727395
290,300,347.5,1.63037070163142,-1.02079038999275
290,300,348.125,1.60156433590745,-0.788123735510669
290,300,348.75,1.57379721551954,-0.560040066354605
290,300,349.375,1.54702101763936,-0.336370344367453
290,300,350,1.52119044582936,-0.116953475870741
290,300,350.625,1.49626302641929,0.0983641481923848
290,300,351.25,1.47219892170432,0.309729079879474
290,300,351.875,1.44896075840033,0.517281212134017
290,300,352.5,1.42651346994723,0.721154149207488
290,300,353.125,1.40482415138637,0.921475551691528
290,300,353.75,1.38386192565978,1.11836745805207
290,300,354.375,1.36359782028523,1.31194658439462
290,300,355,1.34400465345657,1.50232460404228
290,300,355.625,1.32505692870276,1.68960840837654
290,300,356.25,1.30673073731463,1.87390035027149
290,300,356.875,1.28900366781596,2.05529847134504
290,300,357.5,1.27185472181613,2.23389671415446
290,300,358.125,1.25526423563852,2.40978512037566
290,300,358.75,1.23921380716923,2.58305001592494
290,300,359.375,1.22368622741783,2.75377418390582
290,300,360,1.20866541632093,2.92203702618919
290,300,360.625,1.1941363623468,3.08791471436463
290,300,361.25,1.18008506547053,3.25148033073897
290,300,361.875,1.16649848308635,3.4128040000174
290,300,362.5,1.15336447842042,3.5719530122945
290,300,363.125,1.14067177103132,3.72899193800144
290,300,363.75,1.12840988905149,3.88398273547364
290,300,364.375,1.11656912291871,4.0369848517794
290,300,365,1.10514048042274,4.18805531737524
290,300,365.625,1.09411564291471,4.33724883505784
290,300,366.25,1.0834869224977,4.48461786361826
290,300,366.875,1.07324721997934,4.63021269659027
290,300,367.5,1.063389983355,4.77408153650652
290,300,368.125,1.05390916661014,4.91627056510271
290,300,368.75,1.04479918867155,5.05682400992323
290,300,369.375,1.03605489238103,5.19578420777923
290,300,370,1.02767150340636,5.33319166549735
290,300,370.625,1.01964458903928,5.46908511838076
